Freq.	V(vout)
1.00000000000000e+000	(-4.87961682483250e-004dB,-2.97311015832471e-002°)
1.00230523807790e+000	(-4.87961669616470e-004dB,-2.97996388514818e-002°)
1.00461579027840e+000	(-4.87961656677362e-004dB,-2.98683341144411e-002°)
1.00693166885180e+000	(-4.87961643690999e-004dB,-2.99371877363411e-002°)
1.00925288607668e+000	(-4.87961630635200e-004dB,-3.00062000822383e-002°)
1.01157945425990e+000	(-4.87961617536004e-004dB,-3.00753715180285e-002°)
1.01391138573668e+000	(-4.87961604354836e-004dB,-3.01447024104538e-002°)
1.01624869287070e+000	(-4.87961591124484e-004dB,-3.02141931270952e-002°)
1.01859138805412e+000	(-4.87961577830483e-004dB,-3.02838440363892e-002°)
1.02093948370768e+000	(-4.87961564474762e-004dB,-3.03536555076162e-002°)
1.02329299228075e+000	(-4.87961551057320e-004dB,-3.04236279109091e-002°)
1.02565192625141e+000	(-4.87961537577193e-004dB,-3.04937616172606e-002°)
1.02801629812647e+000	(-4.87961524036311e-004dB,-3.05640569985050e-002°)
1.03038612044162e+000	(-4.87961510432743e-004dB,-3.06345144273466e-002°)
1.03276140576140e+000	(-4.87961496772277e-004dB,-3.07051342773414e-002°)
1.03514216667934e+000	(-4.87961483044305e-004dB,-3.07759169229062e-002°)
1.03752841581801e+000	(-4.87961469239181e-004dB,-3.08468627393303e-002°)
1.03992016582906e+000	(-4.87961455386803e-004dB,-3.09179721027550e-002°)
1.04231742939330e+000	(-4.87961441466919e-004dB,-3.09892453901991e-002°)
1.04472021922080e+000	(-4.87961427487243e-004dB,-3.10606829795470e-002°)
1.04712854805090e+000	(-4.87961413432345e-004dB,-3.11322852495507e-002°)
1.04954242865232e+000	(-4.87961399323441e-004dB,-3.12040525798397e-002°)
1.05196187382322e+000	(-4.87961385149924e-004dB,-3.12759853509151e-002°)
1.05438689639126e+000	(-4.87961370899257e-004dB,-3.13480839441633e-002°)
1.05681750921366e+000	(-4.87961356586869e-004dB,-3.14203487418357e-002°)
1.05925372517729e+000	(-4.87961342206009e-004dB,-3.14927801270847e-002°)
1.06169555719872e+000	(-4.87961327769216e-004dB,-3.15653784839214e-002°)
1.06414301822431e+000	(-4.87961313264916e-004dB,-3.16381441972652e-002°)
1.06659612123026e+000	(-4.87961298684430e-004dB,-3.17110776529028e-002°)
1.06905487922266e+000	(-4.87961284036438e-004dB,-3.17841792375305e-002°)
1.07151930523761e+000	(-4.87961269332511e-004dB,-3.18574493387173e-002°)
1.07398941234124e+000	(-4.87961254564935e-004dB,-3.19308883449426e-002°)
1.07646521362983e+000	(-4.87961239700920e-004dB,-3.20044966455686e-002°)
1.07894672222983e+000	(-4.87961224788687e-004dB,-3.20782746308511e-002°)
1.08143395129794e+000	(-4.87961209801232e-004dB,-3.21522226919660e-002°)
1.08392691402120e+000	(-4.87961194750128e-004dB,-3.22263412209761e-002°)
1.08642562361706e+000	(-4.87961179629588e-004dB,-3.23006306108416e-002°)
1.08893009333343e+000	(-4.87961164432862e-004dB,-3.23750912554493e-002°)
1.09144033644876e+000	(-4.87961149170558e-004dB,-3.24497235495797e-002°)
1.09395636627209e+000	(-4.87961133843641e-004dB,-3.25245278889173e-002°)
1.09647819614318e+000	(-4.87961118433786e-004dB,-3.25995046700756e-002°)
1.09900583943252e+000	(-4.87961102961247e-004dB,-3.26746542905714e-002°)
1.10153930954141e+000	(-4.87961087412522e-004dB,-3.27499771488432e-002°)
1.10407861990207e+000	(-4.87961071787611e-004dB,-3.28254736442385e-002°)
1.10662378397766e+000	(-4.87961056102908e-004dB,-3.29011441770385e-002°)
1.10917481526240e+000	(-4.87961040342983e-004dB,-3.29769891484430e-002°)
1.11173172728159e+000	(-4.87961024503014e-004dB,-3.30530089605655e-002°)
1.11429453359173e+000	(-4.87961008600361e-004dB,-3.31292040164653e-002°)
1.11686324778056e+000	(-4.87960992605127e-004dB,-3.32055747201155e-002°)
1.11943788346715e+000	(-4.87960976548173e-004dB,-3.32821214764246e-002°)
1.12201845430196e+000	(-4.87960960422747e-004dB,-3.33588446912403e-002°)
1.12460497396692e+000	(-4.87960944221136e-004dB,-3.34357447713389e-002°)
1.12719745617551e+000	(-4.87960927941409e-004dB,-3.35128221244386e-002°)
1.12979591467280e+000	(-4.87960911585497e-004dB,-3.35900771591961e-002°)
1.13240036323556e+000	(-4.87960895156291e-004dB,-3.36675102852038e-002°)
1.13501081567231e+000	(-4.87960878652828e-004dB,-3.37451219130153e-002°)
1.13762728582343e+000	(-4.87960862072214e-004dB,-3.38229124541162e-002°)
1.14024978756117e+000	(-4.87960845410593e-004dB,-3.39008823209381e-002°)
1.14287833478977e+000	(-4.87960828668927e-004dB,-3.39790319268757e-002°)
1.14551294144553e+000	(-4.87960811849147e-004dB,-3.40573616862659e-002°)
1.14815362149688e+000	(-4.87960794973433e-004dB,-3.41358720144100e-002°)
1.15080038894443e+000	(-4.87960777997423e-004dB,-3.42145633275578e-002°)
1.15345325782109e+000	(-4.87960760949084e-004dB,-3.42934360429262e-002°)
1.15611224219210e+000	(-4.87960743835167e-004dB,-3.43724905786903e-002°)
1.15877735615512e+000	(-4.87960726626741e-004dB,-3.44517273539887e-002°)
1.16144861384034e+000	(-4.87960709338272e-004dB,-3.45311467889268e-002°)
1.16412602941049e+000	(-4.87960691986153e-004dB,-3.46107493045767e-002°)
1.16680961706096e+000	(-4.87960674538560e-004dB,-3.46905353229886e-002°)
1.16949939101987e+000	(-4.87960657006102e-004dB,-3.47705052671746e-002°)
1.17219536554813e+000	(-4.87960639402279e-004dB,-3.48506595611308e-002°)
1.17489755493953e+000	(-4.87960621725164e-004dB,-3.49309986298261e-002°)
1.17760597352080e+000	(-4.87960603943895e-004dB,-3.50115228992093e-002°)
1.18032063565173e+000	(-4.87960586100906e-004dB,-3.50922327962128e-002°)
1.18304155572516e+000	(-4.87960568165336e-004dB,-3.51731287487527e-002°)
1.18576874816716e+000	(-4.87960550155509e-004dB,-3.52542111857313e-002°)
1.18850222743702e+000	(-4.87960532048279e-004dB,-3.53354805370407e-002°)
1.19124200802737e+000	(-4.87960513867756e-004dB,-3.54169372335632e-002°)
1.19398810446427e+000	(-4.87960495610083e-004dB,-3.54985817071693e-002°)
1.19674053130724e+000	(-4.87960477253079e-004dB,-3.55804143907383e-002°)
1.19949930314938e+000	(-4.87960458824710e-004dB,-3.56624357181293e-002°)
1.20226443461741e+000	(-4.87960440293152e-004dB,-3.57446461242214e-002°)
1.20503594037179e+000	(-4.87960421700838e-004dB,-3.58270460448797e-002°)
1.20781383510678e+000	(-4.87960403010158e-004dB,-3.59096359169796e-002°)
1.21059813355048e+000	(-4.87960384225932e-004dB,-3.59924161784079e-002°)
1.21338885046497e+000	(-4.87960365352984e-004dB,-3.60753872680590e-002°)
1.21618600064636e+000	(-4.87960346403849e-004dB,-3.61585496258334e-002°)
1.21898959892486e+000	(-4.87960327360204e-004dB,-3.62419036926519e-002°)
1.22179966016487e+000	(-4.87960308250018e-004dB,-3.63254499104448e-002°)
1.22461619926504e+000	(-4.87960289024105e-004dB,-3.64091887221743e-002°)
1.22743923115840e+000	(-4.87960269717185e-004dB,-3.64931205718074e-002°)
1.23026877081238e+000	(-4.87960250332149e-004dB,-3.65772459043489e-002°)
1.23310483322890e+000	(-4.87960230851640e-004dB,-3.66615651658198e-002°)
1.23594743344451e+000	(-4.87960211271800e-004dB,-3.67460788032699e-002°)
1.23879658653036e+000	(-4.87960191614809e-004dB,-3.68307872647906e-002°)
1.24165230759241e+000	(-4.87960171858486e-004dB,-3.69156909994841e-002°)
1.24451461177138e+000	(-4.87960152015370e-004dB,-3.70007904575177e-002°)
1.24738351424294e+000	(-4.87960132071957e-004dB,-3.70860860900700e-002°)
1.25025903021771e+000	(-4.87960112057181e-004dB,-3.71715783493694e-002°)
1.25314117494141e+000	(-4.87960091938251e-004dB,-3.72572676886911e-002°)
1.25602996369487e+000	(-4.87960071714203e-004dB,-3.73431545623607e-002°)
1.25892541179416e+000	(-4.87960051411077e-004dB,-3.74292394257241e-002°)
1.26182753459066e+000	(-4.87960031006690e-004dB,-3.75155227352012e-002°)
1.26473634747115e+000	(-4.87960010520331e-004dB,-3.76020049482611e-002°)
1.26765186585784e+000	(-4.87959989921139e-004dB,-3.76886865234248e-002°)
1.27057410520854e+000	(-4.87959969238046e-004dB,-3.77755679202660e-002°)
1.27350308101666e+000	(-4.87959948463336e-004dB,-3.78626495994211e-002°)
1.27643880881134e+000	(-4.87959927578688e-004dB,-3.79499320225851e-002°)
1.27938130415752e+000	(-4.87959906612066e-004dB,-3.80374156525345e-002°)
1.28233058265602e+000	(-4.87959885543221e-004dB,-3.81251009530873e-002°)
1.28528665994361e+000	(-4.87959864388545e-004dB,-3.82129883891439e-002°)
1.28824955169313e+000	(-4.87959843117179e-004dB,-3.83010784266729e-002°)
1.29121927361353e+000	(-4.87959821759983e-004dB,-3.83893715327230e-002°)
1.29419584144998e+000	(-4.87959800289955e-004dB,-3.84778681754183e-002°)
1.29717927098395e+000	(-4.87959778733132e-004dB,-3.85665688239508e-002°)
1.30016957803328e+000	(-4.87959757072156e-004dB,-3.86554739486157e-002°)
1.30316677845229e+000	(-4.87959735315706e-004dB,-3.87445840207624e-002°)
1.30617088813183e+000	(-4.87959713462818e-004dB,-3.88338995128554e-002°)
1.30918192299940e+000	(-4.87959691486489e-004dB,-3.89234208984331e-002°)
1.31219989901920e+000	(-4.87959669428188e-004dB,-3.90131486521342e-002°)
1.31522483219223e+000	(-4.87959647272484e-004dB,-3.91030832496699e-002°)
1.31825673855640e+000	(-4.87959625007805e-004dB,-3.91932251678859e-002°)
1.32129563418657e+000	(-4.87959602623542e-004dB,-3.92835748846916e-002°)
1.32434153519466e+000	(-4.87959580153450e-004dB,-3.93741328791208e-002°)
1.32739445772973e+000	(-4.87959557584027e-004dB,-3.94648996312968e-002°)
1.33045441797808e+000	(-4.87959534903699e-004dB,-3.95558756224613e-002°)
1.33352143216332e+000	(-4.87959512127898e-004dB,-3.96470613349515e-002°)
1.33659551654643e+000	(-4.87959489232513e-004dB,-3.97384572522345e-002°)
1.33967668742593e+000	(-4.87959466229118e-004dB,-3.98300638588802e-002°)
1.34276496113786e+000	(-4.87959443129284e-004dB,-3.99218816405732e-002°)
1.34586035405594e+000	(-4.87959419926262e-004dB,-4.00139110841281e-002°)
1.34896288259164e+000	(-4.87959396608478e-004dB,-4.01061526774720e-002°)
1.35207256319427e+000	(-4.87959373179791e-004dB,-4.01986069096646e-002°)
1.35518941235103e+000	(-4.87959349651772e-004dB,-4.02912742708848e-002°)
1.35831344658715e+000	(-4.87959326016707e-004dB,-4.03841552524509e-002°)
1.36144468246594e+000	(-4.87959302269773e-004dB,-4.04772503467998e-002°)
1.36458313658892e+000	(-4.87959278406149e-004dB,-4.05705600475244e-002°)
1.36772882559584e+000	(-4.87959254442230e-004dB,-4.06640848493319e-002°)
1.37088176616484e+000	(-4.87959230354870e-004dB,-4.07578252480895e-002°)
1.37404197501251e+000	(-4.87959206167214e-004dB,-4.08517817407935e-002°)
1.37720946889394e+000	(-4.87959181870583e-004dB,-4.09459548255994e-002°)
1.38038426460288e+000	(-4.87959157455332e-004dB,-4.10403450018051e-002°)
1.38356637897177e+000	(-4.87959132934000e-004dB,-4.11349527698461e-002°)
1.38675582887188e+000	(-4.87959108285370e-004dB,-4.12297786313312e-002°)
1.38995263121334e+000	(-4.87959083539337e-004dB,-4.13248230890233e-002°)
1.39315680294529e+000	(-4.87959058666970e-004dB,-4.14200866468274e-002°)
1.39636836105593e+000	(-4.87959033677913e-004dB,-4.15155698098272e-002°)
1.39958732257261e+000	(-4.87959008586631e-004dB,-4.16112730842604e-002°)
1.40281370456195e+000	(-4.87958983368051e-004dB,-4.17071969775483e-002°)
1.40604752412990e+000	(-4.87958958044354e-004dB,-4.18033419982547e-002°)
1.40928879842186e+000	(-4.87958932591429e-004dB,-4.18997086561448e-002°)
1.41253754462274e+000	(-4.87958907025672e-004dB,-4.19962974621364e-002°)
1.41579377995707e+000	(-4.87958881347082e-004dB,-4.20931089283354e-002°)
1.41905752168908e+000	(-4.87958855537336e-004dB,-4.21901435680307e-002°)
1.42232878712281e+000	(-4.87958829623437e-004dB,-4.22874018956859e-002°)
1.42560759360218e+000	(-4.87958803587061e-004dB,-4.23848844269497e-002°)
1.42889395851109e+000	(-4.87958777417601e-004dB,-4.24825916786826e-002°)
1.43218789927353e+000	(-4.87958751147845e-004dB,-4.25805241689025e-002°)
1.43548943335364e+000	(-4.87958724742111e-004dB,-4.26786824168473e-002°)
1.43879857825583e+000	(-4.87958698210044e-004dB,-4.27770669429338e-002°)
1.44211535152486e+000	(-4.87958671569965e-004dB,-4.28756782687947e-002°)
1.44543977074592e+000	(-4.87958644799695e-004dB,-4.29745169172547e-002°)
1.44877185354475e+000	(-4.87958617910806e-004dB,-4.30735834123424e-002°)
1.45211161758773e+000	(-4.87958590890761e-004dB,-4.31728782793045e-002°)
1.45545908058195e+000	(-4.87958563754026e-004dB,-4.32724020445937e-002°)
1.45881426027534e+000	(-4.87958536470705e-004dB,-4.33721552358703e-002°)
1.46217717445671e+000	(-4.87958509082267e-004dB,-4.34721383820189e-002°)
1.46554784095590e+000	(-4.87958481559779e-004dB,-4.35723520131399e-002°)
1.46892627764385e+000	(-4.87958453927352e-004dB,-4.36727966605539e-002°)
1.47231250243271e+000	(-4.87958426146410e-004dB,-4.37734728568154e-002°)
1.47570653327588e+000	(-4.87958398229490e-004dB,-4.38743811356918e-002°)
1.47910838816819e+000	(-4.87958370217096e-004dB,-4.39755220321901e-002°)
1.48251808514594e+000	(-4.87958342045580e-004dB,-4.40768960825506e-002°)
1.48593564228699e+000	(-4.87958313759302e-004dB,-4.41785038242545e-002°)
1.48936107771090e+000	(-4.87958285332224e-004dB,-4.42803457960088e-002°)
1.49279440957898e+000	(-4.87958256789421e-004dB,-4.43824225377712e-002°)
1.49623565609442e+000	(-4.87958228103889e-004dB,-4.44847345907468e-002°)
1.49968483550236e+000	(-4.87958199297809e-004dB,-4.45872824973726e-002°)
1.50314196609001e+000	(-4.87958170334535e-004dB,-4.46900668013593e-002°)
1.50660706618673e+000	(-4.87958141263251e-004dB,-4.47930880476564e-002°)
1.51008015416413e+000	(-4.87958112037665e-004dB,-4.48963467824747e-002°)
1.51356124843619e+000	(-4.87958082681888e-004dB,-4.49998435532770e-002°)
1.51705036745932e+000	(-4.87958053194955e-004dB,-4.51035789087900e-002°)
1.52054752973248e+000	(-4.87958023573008e-004dB,-4.52075533990119e-002°)
1.52405275379728e+000	(-4.87957993811226e-004dB,-4.53117675752099e-002°)
1.52756605823806e+000	(-4.87957963911538e-004dB,-4.54162219899105e-002°)
1.53108746168202e+000	(-4.87957933883587e-004dB,-4.55209171969277e-002°)
1.53461698279928e+000	(-4.87957903704228e-004dB,-4.56258537513413e-002°)
1.53815464030302e+000	(-4.87957873385998e-004dB,-4.57310322095175e-002°)
1.54170045294954e+000	(-4.87957842938540e-004dB,-4.58364531290955e-002°)
1.54525443953840e+000	(-4.87957812345462e-004dB,-4.59421170690109e-002°)
1.54881661891247e+000	(-4.87957781611583e-004dB,-4.60480245894870e-002°)
1.55238700995807e+000	(-4.87957750728225e-004dB,-4.61541762520265e-002°)
1.55596563160506e+000	(-4.87957719713712e-004dB,-4.62605726194399e-002°)
1.55955250282694e+000	(-4.87957688544897e-004dB,-4.63672142558362e-002°)
1.56314764264094e+000	(-4.87957657236247e-004dB,-4.64741017266137e-002°)
1.56675107010813e+000	(-4.87957625790655e-004dB,-4.65812355984749e-002°)
1.57036280433354e+000	(-4.87957594188833e-004dB,-4.66886164394369e-002°)
1.57398286446620e+000	(-4.87957562447175e-004dB,-4.67962448188220e-002°)
1.57761126969933e+000	(-4.87957530559896e-004dB,-4.69041213072724e-002°)
1.58124803927037e+000	(-4.87957498524103e-004dB,-4.70122464767295e-002°)
1.58489319246110e+000	(-4.87957466343651e-004dB,-4.71206209004600e-002°)
1.58854674859776e+000	(-4.87957434006971e-004dB,-4.72292451530666e-002°)
1.59220872705115e+000	(-4.87957401525633e-004dB,-4.73381198104590e-002°)
1.59587914723672e+000	(-4.87957368893851e-004dB,-4.74472454498723e-002°)
1.59955802861465e+000	(-4.87957336111626e-004dB,-4.75566226498871e-002°)
1.60324539069002e+000	(-4.87957303173171e-004dB,-4.76662519904100e-002°)
1.60694125301286e+000	(-4.87957270084272e-004dB,-4.77761340526871e-002°)
1.61064563517825e+000	(-4.87957236844930e-004dB,-4.78862694193008e-002°)
1.61435855682647e+000	(-4.87957203450323e-004dB,-4.79966586741765e-002°)
1.61808003764305e+000	(-4.87957169906236e-004dB,-4.81073024025859e-002°)
1.62181009735891e+000	(-4.87957136211706e-004dB,-4.82182011911554e-002°)
1.62554875575047e+000	(-4.87957102349373e-004dB,-4.83293556278565e-002°)
1.62929603263970e+000	(-4.87957068338526e-004dB,-4.84407663020223e-002°)
1.63305194789432e+000	(-4.87957034167591e-004dB,-4.85524338043363e-002°)
1.63681652142779e+000	(-4.87956999850070e-004dB,-4.86643587268522e-002°)
1.64058977319952e+000	(-4.87956965363783e-004dB,-4.87765416629868e-002°)
1.64437172321491e+000	(-4.87956930703907e-004dB,-4.88889832075245e-002°)
1.64816239152549e+000	(-4.87956895904195e-004dB,-4.90016839566059e-002°)
1.65196179822900e+000	(-4.87956860946325e-004dB,-4.91146445077775e-002°)
1.65576996346951e+000	(-4.87956825818724e-004dB,-4.92278654599293e-002°)
1.65958690743754e+000	(-4.87956790526213e-004dB,-4.93413474133597e-002°)
1.66341265037015e+000	(-4.87956755078437e-004dB,-4.94550909697351e-002°)
1.66724721255104e+000	(-4.87956719453215e-004dB,-4.95690967321111e-002°)
1.67109061431069e+000	(-4.87956683670798e-004dB,-4.96833653049359e-002°)
1.67494287602642e+000	(-4.87956647730223e-004dB,-4.97978972940510e-002°)
1.67880401812254e+000	(-4.87956611620881e-004dB,-4.99126933066918e-002°)
1.68267406107045e+000	(-4.87956575343737e-004dB,-5.00277539514970e-002°)
1.68655302538872e+000	(-4.87956538893969e-004dB,-5.01430798385098e-002°)
1.69044093164324e+000	(-4.87956502280255e-004dB,-5.02586715791721e-002°)
1.69433780044731e+000	(-4.87956465507419e-004dB,-5.03745297863432e-002°)
1.69824365246172e+000	(-4.87956428550386e-004dB,-5.04906550742849e-002°)
1.70215850839493e+000	(-4.87956391431336e-004dB,-5.06070480586944e-002°)
1.70608238900310e+000	(-4.87956354126161e-004dB,-5.07237093566638e-002°)
1.71001531509027e+000	(-4.87956316668614e-004dB,-5.08406395867323e-002°)
1.71395730750840e+000	(-4.87956279023976e-004dB,-5.09578393688421e-002°)
1.71790838715757e+000	(-4.87956241215394e-004dB,-5.10753093243830e-002°)
1.72186857498599e+000	(-4.87956203230330e-004dB,-5.11930500761613e-002°)
1.72583789199018e+000	(-4.87956165064926e-004dB,-5.13110622484340e-002°)
1.72981635921508e+000	(-4.87956126722077e-004dB,-5.14293464668862e-002°)
1.73380399775412e+000	(-4.87956088201781e-004dB,-5.15479033586435e-002°)
1.73780082874935e+000	(-4.87956049520433e-004dB,-5.16667335522947e-002°)
1.74180687339159e+000	(-4.87956010632708e-004dB,-5.17858376778593e-002°)
1.74582215292048e+000	(-4.87955971587788e-004dB,-5.19052163668198e-002°)
1.74984668862464e+000	(-4.87955932364458e-004dB,-5.20248702521104e-002°)
1.75388050184174e+000	(-4.87955892945359e-004dB,-5.21447999681166e-002°)
1.75792361395867e+000	(-4.87955853347848e-004dB,-5.22650061506992e-002°)
1.76197604641161e+000	(-4.87955813564212e-004dB,-5.23854894371865e-002°)
1.76603782068614e+000	(-4.87955773604095e-004dB,-5.25062504663551e-002°)
1.77010895831740e+000	(-4.87955733461709e-004dB,-5.26272898784751e-002°)
1.77418948089014e+000	(-4.87955693133197e-004dB,-5.27486083152921e-002°)
1.77827941003890e+000	(-4.87955652617596e-004dB,-5.28702064200142e-002°)
1.78237876744807e+000	(-4.87955611912011e-004dB,-5.29920848373491e-002°)
1.78648757485203e+000	(-4.87955571012586e-004dB,-5.31142442134815e-002°)
1.79060585403527e+000	(-4.87955529931857e-004dB,-5.32366851960882e-002°)
1.79473362683250e+000	(-4.87955488668859e-004dB,-5.33594084343409e-002°)
1.79887091512876e+000	(-4.87955447207199e-004dB,-5.34824145789085e-002°)
1.80301774085955e+000	(-4.87955405556520e-004dB,-5.36057042819506e-002°)
1.80717412601090e+000	(-4.87955363700428e-004dB,-5.37292781971494e-002°)
1.81134009261958e+000	(-4.87955321664961e-004dB,-5.38531369796641e-002°)
1.81551566277311e+000	(-4.87955279434689e-004dB,-5.39772812862009e-002°)
1.81970085860996e+000	(-4.87955237013470e-004dB,-5.41017117749446e-002°)
1.82389570231961e+000	(-4.87955194386837e-004dB,-5.42264291056290e-002°)
1.82810021614272e+000	(-4.87955151566363e-004dB,-5.43514339394749e-002°)
1.83231442237119e+000	(-4.87955108552049e-004dB,-5.44767269392621e-002°)
1.83653834334832e+000	(-4.87955065322677e-004dB,-5.46023087692779e-002°)
1.84077200146893e+000	(-4.87955021916824e-004dB,-5.47281800953427e-002°)
1.84501541917945e+000	(-4.87954978309415e-004dB,-5.48543415848066e-002°)
1.84926861897805e+000	(-4.87954934486949e-004dB,-5.49807939065828e-002°)
1.85353162341479e+000	(-4.87954890465820e-004dB,-5.51075377310884e-002°)
1.85780445509167e+000	(-4.87954846244100e-004dB,-5.52345737303258e-002°)
1.86208713666284e+000	(-4.87954801815037e-004dB,-5.53619025778159e-002°)
1.86637969083464e+000	(-4.87954757185384e-004dB,-5.54895249486542e-002°)
1.87068214036577e+000	(-4.87954712352246e-004dB,-5.56174415194707e-002°)
